T5AF8 000:003.374   SEGGER J-Link V6.70g Log File
T5AF8 000:003.455   DLL Compiled: Apr 23 2020 09:10:55
T5AF8 000:003.459   Logging started @ 2022-11-26 03:36
T5AF8 000:003.465 JLINK_SetWarnOutHandler(...)
T5AF8 000:003.471 - 0.007ms
T5AF8 000:003.478 JLINK_OpenEx(...)
T5AF8 000:005.342   Firmware: J-Link V11 compiled Jun 17 2021 16:42:11
T5AF8 000:005.499   Decompressing FW timestamp took 115 us
T5AF8 000:009.289   Hardware: V11.00
T5AF8 000:009.319   S/N: 50120677
T5AF8 000:009.326   OEM: SEGGER
T5AF8 000:009.335   Feature(s): GDB, JFlash, FlashDL, RDI, FlashBP
T5AF8 000:011.867   TELNET listener socket opened on port 19021
T5AF8 000:012.046   WEBSRV Starting webserver
T5AF8 000:012.187   WEBSRV Webserver running on local port 19080
T5AF8 000:012.196 - 8.720ms returns "O.K."
T5AF8 000:012.229 JLINK_GetEmuCaps()
T5AF8 000:012.233 - 0.007ms returns 0xB9FF7BBF
T5AF8 000:012.239 JLINK_TIF_GetAvailable(...)
T5AF8 000:012.595 - 0.359ms
T5AF8 000:012.603 JLINK_SetErrorOutHandler(...)
T5AF8 000:012.607 - 0.006ms
T5AF8 000:012.623 JLINK_ExecCommand("ProjectFile = "D:\Projects\Mbedtls\Mbedtls_H7_RSA_SIG_SHA256\MDK-ARM\JLinkSettings.ini"", ...). 
T5AF8 000:018.986   Ref file found at: C:\Keil_v5\ARM\Segger\JLinkDevices.ref
T5AF8 000:019.060   XML referenced by ref file: C:\Program Files (x86)\SEGGER\JLink\JLinkDevices.xml
T5AF8 000:019.590   C:\Program Files (x86)\SEGGER\JLink\JLinkDevices.xml evaluated successfully.
T5AF8 000:048.881   Device "CORTEX-M7" selected.
T5AF8 000:049.149 - 36.539ms returns 0x00
T5AF8 000:051.542 JLINK_ExecCommand("Device = STM32H743IITx", ...). 
T5AF8 000:054.660   Device "CORTEX-M7" selected.
T5AF8 000:054.913 - 3.344ms returns 0x00
T5AF8 000:054.923 JLINK_ExecCommand("DisableConnectionTimeout", ...). 
T5AF8 000:054.932 - 0.004ms returns 0x01
T5AF8 000:054.937 JLINK_GetHardwareVersion()
T5AF8 000:054.942 - 0.006ms returns 0x1ADB0
T5AF8 000:054.947 JLINK_GetDLLVersion()  returns 67007
T5AF8 000:054.965 JLINK_GetFirmwareString(...)
T5AF8 000:054.970 - 0.007ms
T5AF8 000:059.680 JLINK_GetDLLVersion()  returns 67007
T5AF8 000:059.692 JLINK_GetCompileDateTime()
T5AF8 000:059.696 - 0.006ms
T5AF8 000:061.252 JLINK_GetFirmwareString(...)
T5AF8 000:061.263 - 0.012ms
T5AF8 000:063.036 JLINK_GetHardwareVersion()
T5AF8 000:063.047 - 0.013ms returns 0x1ADB0
T5AF8 000:069.484 JLINK_TIF_Select(JLINKARM_TIF_JTAG)
T5AF8 000:071.395 - 1.916ms returns 0x00
T5AF8 000:071.417 JLINK_SetSpeed(5000)
T5AF8 000:071.676 - 0.261ms
T5AF8 000:071.683 JLINK_GetIdData(pIdData)
T5AF8 000:074.522   TotalIRLen = 9, IRPrint = 0x0011
T5AF8 000:076.959   JTAG chain detection found 2 devices:
T5AF8 000:078.488    #0 Id: 0x6BA00477, IRLen: 04, CoreSight JTAG-DP
T5AF8 000:080.051    #1 Id: 0x06450041, IRLen: 05, Unknown device
T5AF8 000:083.367   Cannot determine DP version. Assuming DPv0
T5AF8 000:084.892   Scanning AP map to find all available APs
T5AF8 000:088.036   AP[3]: Stopped AP scan as end of AP map has been reached
T5AF8 000:089.548   AP[0]: AHB-AP (IDR: 0x84770001)
T5AF8 000:091.306   AP[1]: AHB-AP (IDR: 0x84770001)
T5AF8 000:092.879   AP[2]: APB-AP (IDR: 0x54770002)
T5AF8 000:094.399   Iterating through AP map to find AHB-AP to use
T5AF8 000:096.714   AP[0]: Core found
T5AF8 000:098.402   AP[0]: AHB-AP ROM base: 0xE00FE000
T5AF8 000:100.445   CPUID register: 0x411FC271. Implementer code: 0x41 (ARM)
T5AF8 000:101.974   Found Cortex-M7 r1p1, Little endian.
T5AF8 000:102.642    -- Max. mem block: 0x000044E0
T5AF8 000:103.615   CPU_ReadMem(4 bytes @ 0xE000EDF0)
T5AF8 000:104.109   CPU_WriteMem(4 bytes @ 0xE000EDF0)
T5AF8 000:104.523   CPU_ReadMem(4 bytes @ 0xE0002000)
T5AF8 000:106.558   FPUnit: 8 code (BP) slots and 0 literal slots
T5AF8 000:106.571   CPU_ReadMem(4 bytes @ 0xE000EDFC)
T5AF8 000:107.067   CPU_WriteMem(4 bytes @ 0xE000EDFC)
T5AF8 000:107.457   CPU_ReadMem(4 bytes @ 0xE0001000)
T5AF8 000:107.939   CPU_WriteMem(4 bytes @ 0xE0001000)
T5AF8 000:108.394   CPU_ReadMem(4 bytes @ 0xE000ED88)
T5AF8 000:108.853   CPU_WriteMem(4 bytes @ 0xE000ED88)
T5AF8 000:109.251   CPU_ReadMem(4 bytes @ 0xE000ED88)
T5AF8 000:109.730   CPU_WriteMem(4 bytes @ 0xE000ED88)
T5AF8 000:112.564   CoreSight components:
T5AF8 000:114.628   ROMTbl[0] @ E00FE000
T5AF8 000:114.643   CPU_ReadMem(64 bytes @ 0xE00FE000)
T5AF8 000:115.425   CPU_ReadMem(32 bytes @ 0xE00FFFE0)
T5AF8 000:117.827   ROMTbl[0][0]: E00FF000, CID: B105100D, PID: 000BB4C7 ROM Table
T5AF8 000:119.378   ROMTbl[1] @ E00FF000
T5AF8 000:119.391   CPU_ReadMem(64 bytes @ 0xE00FF000)
T5AF8 000:120.134   CPU_ReadMem(32 bytes @ 0xE000EFE0)
T5AF8 000:122.305   ROMTbl[1][0]: E000E000, CID: B105E00D, PID: 000BB00C SCS-M7
T5AF8 000:122.319   CPU_ReadMem(32 bytes @ 0xE0001FE0)
T5AF8 000:124.493   ROMTbl[1][1]: E0001000, CID: B105E00D, PID: 000BB002 DWT
T5AF8 000:124.506   CPU_ReadMem(32 bytes @ 0xE0002FE0)
T5AF8 000:126.615   ROMTbl[1][2]: E0002000, CID: B105E00D, PID: 000BB00E FPB-M7
T5AF8 000:126.628   CPU_ReadMem(32 bytes @ 0xE0000FE0)
T5AF8 000:128.712   ROMTbl[1][3]: E0000000, CID: B105E00D, PID: 000BB001 ITM
T5AF8 000:128.725   CPU_ReadMem(32 bytes @ 0xE0041FE0)
T5AF8 000:131.365   ROMTbl[0][1]: E0041000, CID: B105900D, PID: 001BB975 ETM-M7
T5AF8 000:131.380   CPU_ReadMem(32 bytes @ 0xE0043FE0)
T5AF8 000:133.593   ROMTbl[0][2]: E0043000, CID: B105900D, PID: 004BB906 CTI
T5AF8 000:133.607   CPU_ReadMem(4 bytes @ 0xE000ED78)
T5AF8 000:135.994   Cache: Separate I- and D-cache.
T5AF8 000:136.006   CPU_WriteMem(4 bytes @ 0xE000ED84)
T5AF8 000:136.440   CPU_ReadMem(4 bytes @ 0xE000ED80)
T5AF8 000:138.451   I-Cache L1: 16 KB, 256 Sets, 32 Bytes/Line, 2-Way
T5AF8 000:138.465   CPU_WriteMem(4 bytes @ 0xE000ED84)
T5AF8 000:138.915   CPU_ReadMem(4 bytes @ 0xE000ED80)
T5AF8 000:141.067   D-Cache L1: 16 KB, 128 Sets, 32 Bytes/Line, 4-Way
T5AF8 000:141.120   pIdData->ScanLen=9
T5AF8 000:141.127   
T5AF8 000:141.130   pIdData->NumDevices=2
T5AF8 000:141.136   
T5AF8 000:141.140   pIdData->aId[0]=0x6BA00477
T5AF8 000:141.146   
T5AF8 000:141.149   pIdData->aIrRead[0]=0
T5AF8 000:141.155   
T5AF8 000:141.159   pIdData->aScanLen[0]=0
T5AF8 000:141.164   
T5AF8 000:141.169   pIdData->aScanRead[0]=0
T5AF8 000:141.174   
T5AF8 000:141.178 - 69.497ms
T5AF8 000:141.191 JLINK_JTAG_GetDeviceID(DeviceIndex = 0)
T5AF8 000:141.196 - 0.006ms returns 0x6BA00477
T5AF8 000:141.201 JLINK_JTAG_GetDeviceInfo(DeviceIndex = 0)
T5AF8 000:141.206 - 0.006ms returns 0x00
T5AF8 000:141.237 JLINK_JTAG_GetDeviceID(DeviceIndex = 1)
T5AF8 000:141.242 - 0.006ms returns 0x6450041
T5AF8 000:141.247 JLINK_JTAG_GetDeviceInfo(DeviceIndex = 1)
T5AF8 000:141.250 - 0.006ms returns 0x01
T5AF8 000:141.257 JLINK_GetDLLVersion()  returns 67007
T5AF8 000:141.262 JLINK_CORE_GetFound()
T5AF8 000:141.266 - 0.006ms returns 0xE0100FF
T5AF8 000:141.271 JLINK_GetDebugInfo(0x100 = JLINKARM_ROM_TABLE_ADDR_INDEX)
T5AF8 000:141.278   Value=0xE00FE000
T5AF8 000:141.284 - 0.014ms returns 0x00
T5AF8 000:142.850 JLINK_GetDebugInfo(0x100 = JLINKARM_ROM_TABLE_ADDR_INDEX)
T5AF8 000:142.861   Value=0xE00FE000
T5AF8 000:142.867 - 0.018ms returns 0x00
T5AF8 000:142.872 JLINK_GetDebugInfo(0x101 = JLINKARM_DEBUG_INFO_ETM_ADDR_INDEX)
T5AF8 000:142.876   Value=0xE0041000
T5AF8 000:142.882 - 0.012ms returns 0x00
T5AF8 000:142.888   JLINK_ReadMemEx(0xE0041FD0, 0x0020 Bytes, ..., Flags = 0x02000004)
T5AF8 000:142.916   CPU_ReadMem(32 bytes @ 0xE0041FD0)
T5AF8 000:143.503   Data:  04 00 00 00 00 00 00 00 00 00 00 00 00 00 00 00 ...
T5AF8 000:143.510 - 0.624ms returns 0x20
T5AF8 000:143.516 JLINK_GetDebugInfo(0x102 = JLINKARM_DEBUG_INFO_MTB_ADDR_INDEX)
T5AF8 000:143.520   Value=0x00000000
T5AF8 000:143.525 - 0.011ms returns 0x00
T5AF8 000:143.530 JLINK_GetDebugInfo(0x103 = JLINKARM_DEBUG_INFO_TPIU_ADDR_INDEX)
T5AF8 000:143.534   Value=0x00000000
T5AF8 000:143.540 - 0.011ms returns 0x00
T5AF8 000:143.545   JLINK_ReadMemEx(0xE0040FF0, 0x0010 Bytes, ..., Flags = 0x02000004)
T5AF8 000:143.553   CPU_ReadMem(16 bytes @ 0xE0040FF0)
T5AF8 000:144.066   Data:  00 00 00 00 00 00 00 00 00 00 00 00 00 00 00 00
T5AF8 000:144.086 - 0.543ms returns 0x10
T5AF8 000:144.091 JLINK_GetDebugInfo(0x104 = JLINKARM_DEBUG_INFO_ITM_ADDR_INDEX)
T5AF8 000:144.099   Value=0xE0000000
T5AF8 000:144.105 - 0.016ms returns 0x00
T5AF8 000:144.110 JLINK_GetDebugInfo(0x105 = JLINKARM_DEBUG_INFO_DWT_ADDR_INDEX)
T5AF8 000:144.114   Value=0xE0001000
T5AF8 000:144.120 - 0.011ms returns 0x00
T5AF8 000:144.125 JLINK_GetDebugInfo(0x106 = JLINKARM_DEBUG_INFO_FPB_ADDR_INDEX)
T5AF8 000:144.129   Value=0xE0002000
T5AF8 000:144.134 - 0.011ms returns 0x00
T5AF8 000:144.139 JLINK_GetDebugInfo(0x107 = JLINKARM_DEBUG_INFO_NVIC_ADDR_INDEX)
T5AF8 000:144.143   Value=0xE000E000
T5AF8 000:144.149 - 0.012ms returns 0x00
T5AF8 000:144.154 JLINK_GetDebugInfo(0x10C = JLINKARM_DEBUG_INFO_DBG_ADDR_INDEX)
T5AF8 000:144.158   Value=0xE000EDF0
T5AF8 000:144.164 - 0.012ms returns 0x00
T5AF8 000:144.168 JLINK_GetDebugInfo(0x01 = Unknown)
T5AF8 000:144.176   Value=0x00000001
T5AF8 000:144.182 - 0.015ms returns 0x00
T5AF8 000:144.190 JLINK_ReadMemU32(0xE000ED00, 0x0001 Items, ...)
T5AF8 000:144.196   CPU_ReadMem(4 bytes @ 0xE000ED00)
T5AF8 000:144.689   Data:  71 C2 1F 41
T5AF8 000:144.703    - CPUID
T5AF8 000:144.709 - 0.521ms returns 1
T5AF8 000:144.715 JLINK_GetDebugInfo(0x10F = JLINKARM_DEBUG_INFO_HAS_CORTEX_M_SECURITY_EXT_INDEX)
T5AF8 000:144.719   Value=0x00000000
T5AF8 000:144.725 - 0.011ms returns 0x00
T5AF8 000:144.732 JLINK_SetResetType(JLINKARM_CM3_RESET_TYPE_NORMAL)
T5AF8 000:144.736 - 0.006ms returns JLINKARM_CM3_RESET_TYPE_NORMAL
T5AF8 000:144.742 JLINK_Reset()
T5AF8 000:144.757   CPU is running
T5AF8 000:144.764   CPU_WriteMem(4 bytes @ 0xE000EDF0)
T5AF8 000:145.187   CPU is running
T5AF8 000:145.199   CPU_WriteMem(4 bytes @ 0xE000EDFC)
T5AF8 000:147.534   Reset: Halt core after reset via DEMCR.VC_CORERESET.
T5AF8 000:149.149   Reset: Reset device via AIRCR.SYSRESETREQ.
T5AF8 000:149.162   CPU is running
T5AF8 000:149.170   CPU_WriteMem(4 bytes @ 0xE000ED0C)
T5AF8 000:201.588   CPU_ReadMem(4 bytes @ 0xE000EDF0)
T5AF8 000:202.289   CPU_ReadMem(4 bytes @ 0xE000EDF0)
T5AF8 000:202.888   CPU is running
T5AF8 000:202.903   CPU_WriteMem(4 bytes @ 0xE000EDF0)
T5AF8 000:203.588   CPU is running
T5AF8 000:203.603   CPU_WriteMem(4 bytes @ 0xE000EDFC)
T5AF8 000:209.532   CPU_ReadMem(4 bytes @ 0xE000EDF0)
T5AF8 000:212.720   CPU_WriteMem(4 bytes @ 0xE000EDFC)
T5AF8 000:213.178   CPU_WriteMem(4 bytes @ 0xE0001028)
T5AF8 000:213.630   CPU_WriteMem(4 bytes @ 0xE0001038)
T5AF8 000:214.113   CPU_WriteMem(4 bytes @ 0xE0001048)
T5AF8 000:214.484   CPU_WriteMem(4 bytes @ 0xE0001058)
T5AF8 000:214.943   CPU_WriteMem(4 bytes @ 0xE0002000)
T5AF8 000:215.356   CPU_ReadMem(4 bytes @ 0xE000EDFC)
T5AF8 000:215.777   CPU_ReadMem(4 bytes @ 0xE0001000)
T5AF8 000:216.236 - 71.497ms
T5AF8 000:216.246 JLINK_Halt()
T5AF8 000:216.251 - 0.006ms returns 0x00
T5AF8 000:216.257 JLINK_ReadMemU32(0xE000EDF0, 0x0001 Items, ...)
T5AF8 000:216.266   CPU_ReadMem(4 bytes @ 0xE000EDF0)
T5AF8 000:216.691   Data:  03 00 03 00
T5AF8 000:216.700    - DHCSR
T5AF8 000:216.705 - 0.449ms returns 1
T5AF8 000:216.712 JLINK_WriteU32(0xE000EDF0, 0xA05F0003)
T5AF8 000:216.717    - DHCSR
T5AF8 000:216.733   CPU_WriteMem(4 bytes @ 0xE000EDF0)
T5AF8 000:217.197 - 0.490ms returns 0
T5AF8 000:217.207 JLINK_WriteU32(0xE000EDFC, 0x01000000)
T5AF8 000:217.211    - DEMCR
T5AF8 000:217.219   CPU_WriteMem(4 bytes @ 0xE000EDFC)
T5AF8 000:217.606 - 0.402ms returns 0
T5AF8 000:224.935 JLINK_GetHWStatus(...)
T5AF8 000:225.337 - 0.409ms returns 0x00
T5AF8 000:229.489 JLINK_GetNumBPUnits(Type = 0xFFFFFF00)
T5AF8 000:229.501 - 0.013ms returns 0x08
T5AF8 000:229.506 JLINK_GetNumBPUnits(Type = 0xF0)
T5AF8 000:229.511 - 0.006ms returns 0x2000
T5AF8 000:229.515 JLINK_GetNumWPUnits()
T5AF8 000:229.519 - 0.005ms returns 0x04
T5AF8 000:233.336 JLINK_GetSpeed()
T5AF8 000:233.346 - 0.012ms returns 0x1388
T5AF8 000:235.901 JLINK_ReadMemU32(0xE000E004, 0x0001 Items, ...)
T5AF8 000:235.916   CPU_ReadMem(4 bytes @ 0xE000E004)
T5AF8 000:236.381   Data:  04 00 00 00
T5AF8 000:236.388 - 0.489ms returns 1
T5AF8 000:236.394 JLINK_ReadMemU32(0xE000E004, 0x0001 Items, ...)
T5AF8 000:236.403   CPU_ReadMem(4 bytes @ 0xE000E004)
T5AF8 000:236.877   Data:  04 00 00 00
T5AF8 000:236.888 - 0.495ms returns 1
T5AF8 000:236.893 JLINK_WriteMemEx(0xE0001000, 0x001C Bytes, ..., Flags = 0x02000004)
T5AF8 000:236.898   Data:  01 00 00 00 00 00 00 00 00 00 00 00 00 00 00 00 ...
T5AF8 000:237.119   CPU_WriteMem(28 bytes @ 0xE0001000)
T5AF8 000:237.601 - 0.712ms returns 0x1C
T5AF8 000:237.612 JLINK_Halt()
T5AF8 000:237.625 - 0.014ms returns 0x00
T5AF8 000:237.630 JLINK_IsHalted()
T5AF8 000:237.634 - 0.006ms returns TRUE
T5AF8 000:240.446 JLINK_WriteMem(0x20000000, 0x0418 Bytes, ...)
T5AF8 000:240.454   Data:  00 BE 0A E0 0D 78 2D 06 68 40 08 24 40 00 00 D3 ...
T5AF8 000:240.685   CPU_WriteMem(1048 bytes @ 0x20000000)
T5AF8 000:243.971 - 3.529ms returns 0x418
T5AF8 000:244.026 JLINK_WriteReg(R0, 0x08000000)
T5AF8 000:244.034 - 0.010ms returns 0x00
T5AF8 000:244.039 JLINK_WriteReg(R1, 0x017D7840)
T5AF8 000:244.043 - 0.006ms returns 0x00
T5AF8 000:244.048 JLINK_WriteReg(R2, 0x00000001)
T5AF8 000:244.052 - 0.006ms returns 0x00
T5AF8 000:244.057 JLINK_WriteReg(R3, 0x00000000)
T5AF8 000:244.061 - 0.006ms returns 0x00
T5AF8 000:244.067 JLINK_WriteReg(R4, 0x00000000)
T5AF8 000:244.071 - 0.006ms returns 0x00
T5AF8 000:244.076 JLINK_WriteReg(R5, 0x00000000)
T5AF8 000:244.080 - 0.006ms returns 0x00
T5AF8 000:244.084 JLINK_WriteReg(R6, 0x00000000)
T5AF8 000:244.089 - 0.006ms returns 0x00
T5AF8 000:244.094 JLINK_WriteReg(R7, 0x00000000)
T5AF8 000:244.098 - 0.006ms returns 0x00
T5AF8 000:244.103 JLINK_WriteReg(R8, 0x00000000)
T5AF8 000:244.108 - 0.006ms returns 0x00
T5AF8 000:244.112 JLINK_WriteReg(R9, 0x20000414)
T5AF8 000:244.116 - 0.006ms returns 0x00
T5AF8 000:244.122 JLINK_WriteReg(R10, 0x00000000)
T5AF8 000:244.127 - 0.006ms returns 0x00
T5AF8 000:244.131 JLINK_WriteReg(R11, 0x00000000)
T5AF8 000:244.137 - 0.007ms returns 0x00
T5AF8 000:244.141 JLINK_WriteReg(R12, 0x00000000)
T5AF8 000:244.145 - 0.006ms returns 0x00
T5AF8 000:244.150 JLINK_WriteReg(R13 (SP), 0x20008000)
T5AF8 000:244.158 - 0.010ms returns 0x00
T5AF8 000:244.163 JLINK_WriteReg(R14, 0x20000001)
T5AF8 000:244.167 - 0.006ms returns 0x00
T5AF8 000:244.172 JLINK_WriteReg(R15 (PC), 0x2000003E)
T5AF8 000:244.177 - 0.006ms returns 0x00
T5AF8 000:244.182 JLINK_WriteReg(XPSR, 0x01000000)
T5AF8 000:244.187 - 0.006ms returns 0x00
T5AF8 000:244.192 JLINK_WriteReg(MSP, 0x20008000)
T5AF8 000:244.197 - 0.006ms returns 0x00
T5AF8 000:244.223 JLINK_WriteReg(PSP, 0x20008000)
T5AF8 000:244.228 - 0.007ms returns 0x00
T5AF8 000:244.233 JLINK_WriteReg(CFBP, 0x00000000)
T5AF8 000:244.237 - 0.006ms returns 0x00
T5AF8 000:244.242   JLINK_SetBPEx(Addr = 0x20000000, Type = 0xFFFFFFF2)
T5AF8 000:244.267 - 0.026ms returns 0x00000001
T5AF8 000:244.272 JLINK_Go()
T5AF8 000:244.285   CPU_ReadMem(4 bytes @ 0xE0001000)
T5AF8 000:244.815   CPU_WriteMem(4 bytes @ 0xE0002008)
T5AF8 000:244.822   CPU_WriteMem(4 bytes @ 0xE000200C)
T5AF8 000:244.827   CPU_WriteMem(4 bytes @ 0xE0002010)
T5AF8 000:244.833   CPU_WriteMem(4 bytes @ 0xE0002014)
T5AF8 000:244.839   CPU_WriteMem(4 bytes @ 0xE0002018)
T5AF8 000:244.844   CPU_WriteMem(4 bytes @ 0xE000201C)
T5AF8 000:244.850   CPU_WriteMem(4 bytes @ 0xE0002020)
T5AF8 000:244.856   CPU_WriteMem(4 bytes @ 0xE0002024)
T5AF8 000:246.146   CPU_WriteMem(4 bytes @ 0xE0001004)
T5AF8 000:248.692 - 4.442ms
T5AF8 000:248.718 JLINK_IsHalted()
T5AF8 000:250.762 - 2.047ms returns TRUE
T5AF8 000:250.769 JLINK_ReadReg(R15 (PC))
T5AF8 000:250.773 - 0.006ms returns 0x20000000
T5AF8 000:250.778 JLINK_ClrBPEx(BPHandle = 0x00000001)
T5AF8 000:250.782 - 0.006ms returns 0x00
T5AF8 000:250.787 JLINK_ReadReg(R0)
T5AF8 000:250.791 - 0.006ms returns 0x00000000
T5AF8 000:250.965 JLINK_WriteReg(R0, 0x08000000)
T5AF8 000:250.973 - 0.010ms returns 0x00
T5AF8 000:250.978 JLINK_WriteReg(R1, 0x00020000)
T5AF8 000:250.982 - 0.006ms returns 0x00
T5AF8 000:250.987 JLINK_WriteReg(R2, 0x000000FF)
T5AF8 000:250.991 - 0.006ms returns 0x00
T5AF8 000:250.995 JLINK_WriteReg(R3, 0x00000000)
T5AF8 000:251.030 - 0.038ms returns 0x00
T5AF8 000:251.037 JLINK_WriteReg(R4, 0x00000000)
T5AF8 000:251.041 - 0.006ms returns 0x00
T5AF8 000:251.045 JLINK_WriteReg(R5, 0x00000000)
T5AF8 000:251.049 - 0.006ms returns 0x00
T5AF8 000:251.054 JLINK_WriteReg(R6, 0x00000000)
T5AF8 000:251.058 - 0.006ms returns 0x00
T5AF8 000:251.063 JLINK_WriteReg(R7, 0x00000000)
T5AF8 000:251.067 - 0.006ms returns 0x00
T5AF8 000:251.071 JLINK_WriteReg(R8, 0x00000000)
T5AF8 000:251.075 - 0.006ms returns 0x00
T5AF8 000:251.080 JLINK_WriteReg(R9, 0x20000414)
T5AF8 000:251.084 - 0.006ms returns 0x00
T5AF8 000:251.089 JLINK_WriteReg(R10, 0x00000000)
T5AF8 000:251.093 - 0.006ms returns 0x00
T5AF8 000:251.097 JLINK_WriteReg(R11, 0x00000000)
T5AF8 000:251.102 - 0.006ms returns 0x00
T5AF8 000:251.106 JLINK_WriteReg(R12, 0x00000000)
T5AF8 000:251.110 - 0.006ms returns 0x00
T5AF8 000:251.115 JLINK_WriteReg(R13 (SP), 0x20008000)
T5AF8 000:251.119 - 0.006ms returns 0x00
T5AF8 000:251.124 JLINK_WriteReg(R14, 0x20000001)
T5AF8 000:251.128 - 0.006ms returns 0x00
T5AF8 000:251.133 JLINK_WriteReg(R15 (PC), 0x20000020)
T5AF8 000:251.137 - 0.006ms returns 0x00
T5AF8 000:251.141 JLINK_WriteReg(XPSR, 0x01000000)
T5AF8 000:251.146 - 0.006ms returns 0x00
T5AF8 000:251.150 JLINK_WriteReg(MSP, 0x20008000)
T5AF8 000:251.154 - 0.006ms returns 0x00
T5AF8 000:251.159 JLINK_WriteReg(PSP, 0x20008000)
T5AF8 000:251.163 - 0.006ms returns 0x00
T5AF8 000:251.168 JLINK_WriteReg(CFBP, 0x00000000)
T5AF8 000:251.172 - 0.006ms returns 0x00
T5AF8 000:251.177   JLINK_SetBPEx(Addr = 0x20000000, Type = 0xFFFFFFF2)
T5AF8 000:251.183 - 0.009ms returns 0x00000002
T5AF8 000:251.188 JLINK_Go()
T5AF8 000:251.196   CPU_ReadMem(4 bytes @ 0xE0001000)
T5AF8 000:253.836 - 2.656ms
T5AF8 000:253.848 JLINK_IsHalted()
T5AF8 000:256.004 - 2.164ms returns TRUE
T5AF8 000:256.016 JLINK_ReadReg(R15 (PC))
T5AF8 000:256.021 - 0.007ms returns 0x20000022
T5AF8 000:256.026 JLINK_ClrBPEx(BPHandle = 0x00000002)
T5AF8 000:256.031 - 0.006ms returns 0x00
T5AF8 000:256.037 JLINK_WriteReg(R0, 0x08000000)
T5AF8 000:256.042 - 0.006ms returns 0x00
T5AF8 000:256.047 JLINK_WriteReg(R1, 0x00020000)
T5AF8 000:256.051 - 0.006ms returns 0x00
T5AF8 000:256.057 JLINK_WriteReg(R2, 0x000000FF)
T5AF8 000:256.061 - 0.006ms returns 0x00
T5AF8 000:256.066 JLINK_WriteReg(R3, 0x00000000)
T5AF8 000:256.070 - 0.006ms returns 0x00
T5AF8 000:256.075 JLINK_WriteReg(R4, 0x00000000)
T5AF8 000:256.080 - 0.006ms returns 0x00
T5AF8 000:256.084 JLINK_WriteReg(R5, 0x00000000)
T5AF8 000:256.089 - 0.006ms returns 0x00
T5AF8 000:256.094 JLINK_WriteReg(R6, 0x00000000)
T5AF8 000:256.098 - 0.006ms returns 0x00
T5AF8 000:256.103 JLINK_WriteReg(R7, 0x00000000)
T5AF8 000:256.107 - 0.007ms returns 0x00
T5AF8 000:256.113 JLINK_WriteReg(R8, 0x00000000)
T5AF8 000:256.117 - 0.006ms returns 0x00
T5AF8 000:256.122 JLINK_WriteReg(R9, 0x20000414)
T5AF8 000:256.126 - 0.006ms returns 0x00
T5AF8 000:256.130 JLINK_WriteReg(R10, 0x00000000)
T5AF8 000:256.134 - 0.006ms returns 0x00
T5AF8 000:256.139 JLINK_WriteReg(R11, 0x00000000)
T5AF8 000:256.143 - 0.006ms returns 0x00
T5AF8 000:256.149 JLINK_WriteReg(R12, 0x00000000)
T5AF8 000:256.153 - 0.006ms returns 0x00
T5AF8 000:256.158 JLINK_WriteReg(R13 (SP), 0x20008000)
T5AF8 000:256.162 - 0.006ms returns 0x00
T5AF8 000:256.166 JLINK_WriteReg(R14, 0x20000001)
T5AF8 000:256.170 - 0.006ms returns 0x00
T5AF8 000:256.175 JLINK_WriteReg(R15 (PC), 0x2000018E)
T5AF8 000:256.179 - 0.006ms returns 0x00
T5AF8 000:256.184 JLINK_WriteReg(XPSR, 0x01000000)
T5AF8 000:256.188 - 0.006ms returns 0x00
T5AF8 000:256.192 JLINK_WriteReg(MSP, 0x20008000)
T5AF8 000:256.196 - 0.008ms returns 0x00
T5AF8 000:256.204 JLINK_WriteReg(PSP, 0x20008000)
T5AF8 000:256.210 - 0.008ms returns 0x00
T5AF8 000:256.216 JLINK_WriteReg(CFBP, 0x00000000)
T5AF8 000:256.222 - 0.008ms returns 0x00
T5AF8 000:256.229   JLINK_SetBPEx(Addr = 0x20000000, Type = 0xFFFFFFF2)
T5AF8 000:256.238 - 0.012ms returns 0x00000003
T5AF8 000:256.245 JLINK_Go()
T5AF8 000:256.256   CPU_ReadMem(4 bytes @ 0xE0001000)
T5AF8 000:259.078 - 2.841ms
T5AF8 000:259.091 JLINK_IsHalted()
T5AF8 000:261.094 - 2.008ms returns TRUE
T5AF8 000:261.103 JLINK_ReadReg(R15 (PC))
T5AF8 000:261.108 - 0.007ms returns 0x20000000
T5AF8 000:261.113 JLINK_ClrBPEx(BPHandle = 0x00000003)
T5AF8 000:261.119 - 0.007ms returns 0x00
T5AF8 000:261.137 JLINK_ReadReg(R0)
T5AF8 000:261.141 - 0.006ms returns 0x00000000
T5AF8 000:261.610 JLINK_WriteReg(R0, 0x08020000)
T5AF8 000:261.620 - 0.012ms returns 0x00
T5AF8 000:261.624 JLINK_WriteReg(R1, 0x00020000)
T5AF8 000:261.628 - 0.006ms returns 0x00
T5AF8 000:261.633 JLINK_WriteReg(R2, 0x000000FF)
T5AF8 000:261.637 - 0.006ms returns 0x00
T5AF8 000:261.641 JLINK_WriteReg(R3, 0x00000000)
T5AF8 000:261.646 - 0.006ms returns 0x00
T5AF8 000:261.650 JLINK_WriteReg(R4, 0x00000000)
T5AF8 000:261.654 - 0.006ms returns 0x00
T5AF8 000:261.659 JLINK_WriteReg(R5, 0x00000000)
T5AF8 000:261.663 - 0.006ms returns 0x00
T5AF8 000:261.667 JLINK_WriteReg(R6, 0x00000000)
T5AF8 000:261.671 - 0.005ms returns 0x00
T5AF8 000:261.676 JLINK_WriteReg(R7, 0x00000000)
T5AF8 000:261.680 - 0.006ms returns 0x00
T5AF8 000:261.684 JLINK_WriteReg(R8, 0x00000000)
T5AF8 000:261.688 - 0.006ms returns 0x00
T5AF8 000:261.692 JLINK_WriteReg(R9, 0x20000414)
T5AF8 000:261.696 - 0.005ms returns 0x00
T5AF8 000:261.701 JLINK_WriteReg(R10, 0x00000000)
T5AF8 000:261.705 - 0.006ms returns 0x00
T5AF8 000:261.710 JLINK_WriteReg(R11, 0x00000000)
T5AF8 000:261.714 - 0.006ms returns 0x00
T5AF8 000:261.718 JLINK_WriteReg(R12, 0x00000000)
T5AF8 000:261.722 - 0.006ms returns 0x00
T5AF8 000:261.727 JLINK_WriteReg(R13 (SP), 0x20008000)
T5AF8 000:261.731 - 0.006ms returns 0x00
T5AF8 000:261.735 JLINK_WriteReg(R14, 0x20000001)
T5AF8 000:261.740 - 0.006ms returns 0x00
T5AF8 000:261.744 JLINK_WriteReg(R15 (PC), 0x20000020)
T5AF8 000:261.748 - 0.006ms returns 0x00
T5AF8 000:261.753 JLINK_WriteReg(XPSR, 0x01000000)
T5AF8 000:261.757 - 0.006ms returns 0x00
T5AF8 000:261.761 JLINK_WriteReg(MSP, 0x20008000)
T5AF8 000:261.765 - 0.006ms returns 0x00
T5AF8 000:261.770 JLINK_WriteReg(PSP, 0x20008000)
T5AF8 000:261.774 - 0.006ms returns 0x00
T5AF8 000:261.778 JLINK_WriteReg(CFBP, 0x00000000)
T5AF8 000:261.782 - 0.006ms returns 0x00
T5AF8 000:261.787   JLINK_SetBPEx(Addr = 0x20000000, Type = 0xFFFFFFF2)
T5AF8 000:261.793 - 0.008ms returns 0x00000004
T5AF8 000:261.798 JLINK_Go()
T5AF8 000:261.806   CPU_ReadMem(4 bytes @ 0xE0001000)
T5AF8 000:264.546 - 2.760ms
T5AF8 000:264.564 JLINK_IsHalted()
T5AF8 000:266.821 - 2.261ms returns TRUE
T5AF8 000:266.829 JLINK_ReadReg(R15 (PC))
T5AF8 000:266.834 - 0.006ms returns 0x20000022
T5AF8 000:266.838 JLINK_ClrBPEx(BPHandle = 0x00000004)
T5AF8 000:266.843 - 0.006ms returns 0x00
T5AF8 000:266.848 JLINK_WriteReg(R0, 0x08020000)
T5AF8 000:266.853 - 0.006ms returns 0x00
T5AF8 000:266.857 JLINK_WriteReg(R1, 0x00020000)
T5AF8 000:266.861 - 0.006ms returns 0x00
T5AF8 000:266.866 JLINK_WriteReg(R2, 0x000000FF)
T5AF8 000:266.870 - 0.006ms returns 0x00
T5AF8 000:266.874 JLINK_WriteReg(R3, 0x00000000)
T5AF8 000:266.878 - 0.006ms returns 0x00
T5AF8 000:266.883 JLINK_WriteReg(R4, 0x00000000)
T5AF8 000:266.887 - 0.006ms returns 0x00
T5AF8 000:266.891 JLINK_WriteReg(R5, 0x00000000)
T5AF8 000:266.895 - 0.006ms returns 0x00
T5AF8 000:266.900 JLINK_WriteReg(R6, 0x00000000)
T5AF8 000:266.904 - 0.006ms returns 0x00
T5AF8 000:266.908 JLINK_WriteReg(R7, 0x00000000)
T5AF8 000:266.912 - 0.006ms returns 0x00
T5AF8 000:266.917 JLINK_WriteReg(R8, 0x00000000)
T5AF8 000:266.921 - 0.006ms returns 0x00
T5AF8 000:266.925 JLINK_WriteReg(R9, 0x20000414)
T5AF8 000:266.929 - 0.006ms returns 0x00
T5AF8 000:266.934 JLINK_WriteReg(R10, 0x00000000)
T5AF8 000:266.938 - 0.006ms returns 0x00
T5AF8 000:266.942 JLINK_WriteReg(R11, 0x00000000)
T5AF8 000:266.946 - 0.006ms returns 0x00
T5AF8 000:266.951 JLINK_WriteReg(R12, 0x00000000)
T5AF8 000:266.955 - 0.006ms returns 0x00
T5AF8 000:266.960 JLINK_WriteReg(R13 (SP), 0x20008000)
T5AF8 000:266.964 - 0.006ms returns 0x00
T5AF8 000:266.968 JLINK_WriteReg(R14, 0x20000001)
T5AF8 000:266.974 - 0.008ms returns 0x00
T5AF8 000:266.979 JLINK_WriteReg(R15 (PC), 0x2000018E)
T5AF8 000:266.983 - 0.006ms returns 0x00
T5AF8 000:266.988 JLINK_WriteReg(XPSR, 0x01000000)
T5AF8 000:266.992 - 0.006ms returns 0x00
T5AF8 000:266.996 JLINK_WriteReg(MSP, 0x20008000)
T5AF8 000:267.001 - 0.006ms returns 0x00
T5AF8 000:267.005 JLINK_WriteReg(PSP, 0x20008000)
T5AF8 000:267.009 - 0.006ms returns 0x00
T5AF8 000:267.014 JLINK_WriteReg(CFBP, 0x00000000)
T5AF8 000:267.018 - 0.006ms returns 0x00
T5AF8 000:267.022   JLINK_SetBPEx(Addr = 0x20000000, Type = 0xFFFFFFF2)
T5AF8 000:267.028 - 0.008ms returns 0x00000005
T5AF8 000:267.033 JLINK_Go()
T5AF8 000:267.040   CPU_ReadMem(4 bytes @ 0xE0001000)
T5AF8 000:269.879 - 2.855ms
T5AF8 000:269.894 JLINK_IsHalted()
T5AF8 000:271.991 - 2.134ms returns TRUE
T5AF8 000:272.034 JLINK_ReadReg(R15 (PC))
T5AF8 000:272.055 - 0.023ms returns 0x20000000
T5AF8 000:272.060 JLINK_ClrBPEx(BPHandle = 0x00000005)
T5AF8 000:272.065 - 0.006ms returns 0x00
T5AF8 000:272.070 JLINK_ReadReg(R0)
T5AF8 000:272.074 - 0.007ms returns 0x00000000
T5AF8 000:283.898 JLINK_WriteReg(R0, 0x00000001)
T5AF8 000:283.912 - 0.016ms returns 0x00
T5AF8 000:283.917 JLINK_WriteReg(R1, 0x00020000)
T5AF8 000:283.921 - 0.006ms returns 0x00
T5AF8 000:283.925 JLINK_WriteReg(R2, 0x000000FF)
T5AF8 000:283.929 - 0.006ms returns 0x00
T5AF8 000:283.934 JLINK_WriteReg(R3, 0x00000000)
T5AF8 000:283.938 - 0.006ms returns 0x00
T5AF8 000:283.942 JLINK_WriteReg(R4, 0x00000000)
T5AF8 000:283.946 - 0.005ms returns 0x00
T5AF8 000:283.951 JLINK_WriteReg(R5, 0x00000000)
T5AF8 000:283.955 - 0.006ms returns 0x00
T5AF8 000:283.959 JLINK_WriteReg(R6, 0x00000000)
T5AF8 000:283.963 - 0.006ms returns 0x00
T5AF8 000:283.968 JLINK_WriteReg(R7, 0x00000000)
T5AF8 000:283.972 - 0.005ms returns 0x00
T5AF8 000:283.976 JLINK_WriteReg(R8, 0x00000000)
T5AF8 000:283.980 - 0.006ms returns 0x00
T5AF8 000:283.985 JLINK_WriteReg(R9, 0x20000414)
T5AF8 000:283.989 - 0.005ms returns 0x00
T5AF8 000:283.993 JLINK_WriteReg(R10, 0x00000000)
T5AF8 000:283.997 - 0.006ms returns 0x00
T5AF8 000:284.002 JLINK_WriteReg(R11, 0x00000000)
T5AF8 000:284.006 - 0.006ms returns 0x00
T5AF8 000:284.010 JLINK_WriteReg(R12, 0x00000000)
T5AF8 000:284.014 - 0.006ms returns 0x00
T5AF8 000:284.019 JLINK_WriteReg(R13 (SP), 0x20008000)
T5AF8 000:284.023 - 0.006ms returns 0x00
T5AF8 000:284.027 JLINK_WriteReg(R14, 0x20000001)
T5AF8 000:284.032 - 0.006ms returns 0x00
T5AF8 000:284.036 JLINK_WriteReg(R15 (PC), 0x2000009C)
T5AF8 000:284.040 - 0.006ms returns 0x00
T5AF8 000:284.045 JLINK_WriteReg(XPSR, 0x01000000)
T5AF8 000:284.049 - 0.006ms returns 0x00
T5AF8 000:284.053 JLINK_WriteReg(MSP, 0x20008000)
T5AF8 000:284.057 - 0.006ms returns 0x00
T5AF8 000:284.062 JLINK_WriteReg(PSP, 0x20008000)
T5AF8 000:284.066 - 0.006ms returns 0x00
T5AF8 000:284.070 JLINK_WriteReg(CFBP, 0x00000000)
T5AF8 000:284.074 - 0.006ms returns 0x00
T5AF8 000:284.079   JLINK_SetBPEx(Addr = 0x20000000, Type = 0xFFFFFFF2)
T5AF8 000:284.086 - 0.008ms returns 0x00000006
T5AF8 000:284.090 JLINK_Go()
T5AF8 000:284.099   CPU_ReadMem(4 bytes @ 0xE0001000)
T5AF8 000:287.228 - 3.148ms
T5AF8 000:287.243 JLINK_IsHalted()
T5AF8 000:289.356 - 2.123ms returns TRUE
T5AF8 000:289.371 JLINK_ReadReg(R15 (PC))
T5AF8 000:289.376 - 0.007ms returns 0x20000000
T5AF8 000:289.381 JLINK_ClrBPEx(BPHandle = 0x00000006)
T5AF8 000:289.386 - 0.006ms returns 0x00
T5AF8 000:289.390 JLINK_ReadReg(R0)
T5AF8 000:289.394 - 0.006ms returns 0x00000000
T5AF8 000:346.044 JLINK_WriteMem(0x20000000, 0x0418 Bytes, ...)
T5AF8 000:346.059   Data:  00 BE 0A E0 0D 78 2D 06 68 40 08 24 40 00 00 D3 ...
T5AF8 000:346.074   CPU_WriteMem(1048 bytes @ 0x20000000)
T5AF8 000:349.583 - 3.560ms returns 0x418
T5AF8 000:349.681 JLINK_WriteReg(R0, 0x08000000)
T5AF8 000:349.710 - 0.033ms returns 0x00
T5AF8 000:349.719 JLINK_WriteReg(R1, 0x017D7840)
T5AF8 000:349.726 - 0.010ms returns 0x00
T5AF8 000:349.736 JLINK_WriteReg(R2, 0x00000002)
T5AF8 000:349.744 - 0.012ms returns 0x00
T5AF8 000:349.752 JLINK_WriteReg(R3, 0x00000000)
T5AF8 000:349.765 - 0.016ms returns 0x00
T5AF8 000:349.774 JLINK_WriteReg(R4, 0x00000000)
T5AF8 000:349.781 - 0.010ms returns 0x00
T5AF8 000:349.789 JLINK_WriteReg(R5, 0x00000000)
T5AF8 000:349.796 - 0.010ms returns 0x00
T5AF8 000:349.804 JLINK_WriteReg(R6, 0x00000000)
T5AF8 000:349.811 - 0.010ms returns 0x00
T5AF8 000:349.819 JLINK_WriteReg(R7, 0x00000000)
T5AF8 000:349.826 - 0.010ms returns 0x00
T5AF8 000:349.833 JLINK_WriteReg(R8, 0x00000000)
T5AF8 000:349.841 - 0.010ms returns 0x00
T5AF8 000:349.856 JLINK_WriteReg(R9, 0x20000414)
T5AF8 000:349.862 - 0.017ms returns 0x00
T5AF8 000:349.899 JLINK_WriteReg(R10, 0x00000000)
T5AF8 000:349.911 - 0.017ms returns 0x00
T5AF8 000:349.921 JLINK_WriteReg(R11, 0x00000000)
T5AF8 000:349.926 - 0.006ms returns 0x00
T5AF8 000:349.930 JLINK_WriteReg(R12, 0x00000000)
T5AF8 000:349.934 - 0.006ms returns 0x00
T5AF8 000:349.942 JLINK_WriteReg(R13 (SP), 0x20008000)
T5AF8 000:349.948 - 0.007ms returns 0x00
T5AF8 000:349.952 JLINK_WriteReg(R14, 0x20000001)
T5AF8 000:349.956 - 0.006ms returns 0x00
T5AF8 000:349.961 JLINK_WriteReg(R15 (PC), 0x2000003E)
T5AF8 000:349.965 - 0.006ms returns 0x00
T5AF8 000:349.970 JLINK_WriteReg(XPSR, 0x01000000)
T5AF8 000:349.974 - 0.006ms returns 0x00
T5AF8 000:349.978 JLINK_WriteReg(MSP, 0x20008000)
T5AF8 000:349.984 - 0.007ms returns 0x00
T5AF8 000:349.988 JLINK_WriteReg(PSP, 0x20008000)
T5AF8 000:349.992 - 0.006ms returns 0x00
T5AF8 000:349.997 JLINK_WriteReg(CFBP, 0x00000000)
T5AF8 000:350.002 - 0.007ms returns 0x00
T5AF8 000:350.007   JLINK_SetBPEx(Addr = 0x20000000, Type = 0xFFFFFFF2)
T5AF8 000:350.015 - 0.009ms returns 0x00000007
T5AF8 000:350.020 JLINK_Go()
T5AF8 000:350.030   CPU_ReadMem(4 bytes @ 0xE0001000)
T5AF8 000:352.994 - 2.978ms
T5AF8 000:353.001 JLINK_IsHalted()
T5AF8 000:355.000 - 2.002ms returns TRUE
T5AF8 000:355.007 JLINK_ReadReg(R15 (PC))
T5AF8 000:355.012 - 0.006ms returns 0x20000000
T5AF8 000:355.016 JLINK_ClrBPEx(BPHandle = 0x00000007)
T5AF8 000:355.021 - 0.006ms returns 0x00
T5AF8 000:355.042 JLINK_ReadReg(R0)
T5AF8 000:355.065 - 0.033ms returns 0x00000000
T5AF8 000:355.348 JLINK_WriteMem(0x20000418, 0x03E8 Bytes, ...)
T5AF8 000:355.356   Data:  60 FC 07 24 41 03 00 08 11 8C 00 08 B9 89 00 08 ...
T5AF8 000:355.366   CPU_WriteMem(1000 bytes @ 0x20000418)
T5AF8 000:358.503 - 3.172ms returns 0x3E8
T5AF8 000:358.539 JLINK_WriteMem(0x20000800, 0x0018 Bytes, ...)
T5AF8 000:358.562   Data:  70 BD 61 68 69 60 21 68 08 44 28 60 70 BD 53 EA ...
T5AF8 000:358.579   CPU_WriteMem(24 bytes @ 0x20000800)
T5AF8 000:359.044 - 0.511ms returns 0x18
T5AF8 000:359.055 JLINK_WriteReg(R0, 0x08000000)
T5AF8 000:359.059 - 0.006ms returns 0x00
T5AF8 000:359.064 JLINK_WriteReg(R1, 0x00000400)
T5AF8 000:359.068 - 0.006ms returns 0x00
T5AF8 000:359.073 JLINK_WriteReg(R2, 0x20000418)
T5AF8 000:359.077 - 0.005ms returns 0x00
T5AF8 000:359.081 JLINK_WriteReg(R3, 0x00000000)
T5AF8 000:359.085 - 0.006ms returns 0x00
T5AF8 000:359.090 JLINK_WriteReg(R4, 0x00000000)
T5AF8 000:359.094 - 0.005ms returns 0x00
T5AF8 000:359.098 JLINK_WriteReg(R5, 0x00000000)
T5AF8 000:359.102 - 0.005ms returns 0x00
T5AF8 000:359.107 JLINK_WriteReg(R6, 0x00000000)
T5AF8 000:359.111 - 0.006ms returns 0x00
T5AF8 000:359.115 JLINK_WriteReg(R7, 0x00000000)
T5AF8 000:359.119 - 0.006ms returns 0x00
T5AF8 000:359.124 JLINK_WriteReg(R8, 0x00000000)
T5AF8 000:359.128 - 0.006ms returns 0x00
T5AF8 000:359.132 JLINK_WriteReg(R9, 0x20000414)
T5AF8 000:359.136 - 0.006ms returns 0x00
T5AF8 000:359.141 JLINK_WriteReg(R10, 0x00000000)
T5AF8 000:359.145 - 0.006ms returns 0x00
T5AF8 000:359.149 JLINK_WriteReg(R11, 0x00000000)
T5AF8 000:359.153 - 0.006ms returns 0x00
T5AF8 000:359.158 JLINK_WriteReg(R12, 0x00000000)
T5AF8 000:359.162 - 0.006ms returns 0x00
T5AF8 000:359.166 JLINK_WriteReg(R13 (SP), 0x20008000)
T5AF8 000:359.171 - 0.006ms returns 0x00
T5AF8 000:359.175 JLINK_WriteReg(R14, 0x20000001)
T5AF8 000:359.179 - 0.006ms returns 0x00
T5AF8 000:359.184 JLINK_WriteReg(R15 (PC), 0x2000029A)
T5AF8 000:359.227 - 0.046ms returns 0x00
T5AF8 000:359.233 JLINK_WriteReg(XPSR, 0x01000000)
T5AF8 000:359.237 - 0.006ms returns 0x00
T5AF8 000:359.242 JLINK_WriteReg(MSP, 0x20008000)
T5AF8 000:359.246 - 0.006ms returns 0x00
T5AF8 000:359.250 JLINK_WriteReg(PSP, 0x20008000)
T5AF8 000:359.254 - 0.006ms returns 0x00
T5AF8 000:359.259 JLINK_WriteReg(CFBP, 0x00000000)
T5AF8 000:359.263 - 0.006ms returns 0x00
T5AF8 000:359.268   JLINK_SetBPEx(Addr = 0x20000000, Type = 0xFFFFFFF2)
T5AF8 000:359.274 - 0.008ms returns 0x00000008
T5AF8 000:359.279 JLINK_Go()
T5AF8 000:359.287   CPU_ReadMem(4 bytes @ 0xE0001000)
T5AF8 000:361.906 - 2.630ms
T5AF8 000:361.913 JLINK_IsHalted()
T5AF8 000:363.965 - 2.060ms returns TRUE
T5AF8 000:363.980 JLINK_ReadReg(R15 (PC))
T5AF8 000:363.990 - 0.013ms returns 0x20000000
T5AF8 000:364.001 JLINK_ClrBPEx(BPHandle = 0x00000008)
T5AF8 000:364.008 - 0.009ms returns 0x00
T5AF8 000:364.013 JLINK_ReadReg(R0)
T5AF8 000:364.017 - 0.006ms returns 0x00000000
T5AF8 000:364.751 JLINK_WriteMem(0x20000418, 0x03E8 Bytes, ...)
T5AF8 000:364.767   Data:  F0 4B 4F F0 00 06 00 2B 1F BF B3 FA 83 F5 03 FA ...
T5AF8 000:364.797   CPU_WriteMem(1000 bytes @ 0x20000418)
T5AF8 000:367.905 - 3.164ms returns 0x3E8
T5AF8 000:367.920 JLINK_WriteMem(0x20000800, 0x0018 Bytes, ...)
T5AF8 000:367.925   Data:  38 68 BD E8 F8 40 00 F0 3A B8 70 B5 06 46 FF F7 ...
T5AF8 000:367.936   CPU_WriteMem(24 bytes @ 0x20000800)
T5AF8 000:368.428 - 0.521ms returns 0x18
T5AF8 000:368.450 JLINK_WriteReg(R0, 0x08000400)
T5AF8 000:368.457 - 0.009ms returns 0x00
T5AF8 000:368.462 JLINK_WriteReg(R1, 0x00000400)
T5AF8 000:368.467 - 0.006ms returns 0x00
T5AF8 000:368.472 JLINK_WriteReg(R2, 0x20000418)
T5AF8 000:368.476 - 0.006ms returns 0x00
T5AF8 000:368.481 JLINK_WriteReg(R3, 0x00000000)
T5AF8 000:368.485 - 0.006ms returns 0x00
T5AF8 000:368.490 JLINK_WriteReg(R4, 0x00000000)
T5AF8 000:368.495 - 0.006ms returns 0x00
T5AF8 000:368.500 JLINK_WriteReg(R5, 0x00000000)
T5AF8 000:368.504 - 0.006ms returns 0x00
T5AF8 000:368.509 JLINK_WriteReg(R6, 0x00000000)
T5AF8 000:368.513 - 0.006ms returns 0x00
T5AF8 000:368.518 JLINK_WriteReg(R7, 0x00000000)
T5AF8 000:368.523 - 0.006ms returns 0x00
T5AF8 000:368.528 JLINK_WriteReg(R8, 0x00000000)
T5AF8 000:368.532 - 0.006ms returns 0x00
T5AF8 000:368.537 JLINK_WriteReg(R9, 0x20000414)
T5AF8 000:368.541 - 0.006ms returns 0x00
T5AF8 000:368.546 JLINK_WriteReg(R10, 0x00000000)
T5AF8 000:368.551 - 0.006ms returns 0x00
T5AF8 000:368.556 JLINK_WriteReg(R11, 0x00000000)
T5AF8 000:368.560 - 0.006ms returns 0x00
T5AF8 000:368.565 JLINK_WriteReg(R12, 0x00000000)
T5AF8 000:368.570 - 0.006ms returns 0x00
T5AF8 000:368.575 JLINK_WriteReg(R13 (SP), 0x20008000)
T5AF8 000:368.579 - 0.006ms returns 0x00
T5AF8 000:368.584 JLINK_WriteReg(R14, 0x20000001)
T5AF8 000:368.589 - 0.006ms returns 0x00
T5AF8 000:368.594 JLINK_WriteReg(R15 (PC), 0x2000029A)
T5AF8 000:368.598 - 0.006ms returns 0x00
T5AF8 000:368.603 JLINK_WriteReg(XPSR, 0x01000000)
T5AF8 000:368.608 - 0.006ms returns 0x00
T5AF8 000:368.612 JLINK_WriteReg(MSP, 0x20008000)
T5AF8 000:368.617 - 0.006ms returns 0x00
T5AF8 000:368.622 JLINK_WriteReg(PSP, 0x20008000)
T5AF8 000:368.626 - 0.006ms returns 0x00
T5AF8 000:368.631 JLINK_WriteReg(CFBP, 0x00000000)
T5AF8 000:368.636 - 0.006ms returns 0x00
T5AF8 000:368.641   JLINK_SetBPEx(Addr = 0x20000000, Type = 0xFFFFFFF2)
T5AF8 000:368.648 - 0.009ms returns 0x00000009
T5AF8 000:368.653 JLINK_Go()
T5AF8 000:368.663   CPU_ReadMem(4 bytes @ 0xE0001000)
T5AF8 000:371.340 - 2.696ms
T5AF8 000:371.353 JLINK_IsHalted()
T5AF8 000:373.439 - 2.088ms returns TRUE
T5AF8 000:373.445 JLINK_ReadReg(R15 (PC))
T5AF8 000:373.450 - 0.006ms returns 0x20000000
T5AF8 000:373.455 JLINK_ClrBPEx(BPHandle = 0x00000009)
T5AF8 000:373.459 - 0.006ms returns 0x00
T5AF8 000:373.464 JLINK_ReadReg(R0)
T5AF8 000:373.468 - 0.006ms returns 0x00000000
T5AF8 000:373.788 JLINK_WriteMem(0x20000418, 0x03E8 Bytes, ...)
T5AF8 000:373.798   Data:  20 F0 07 04 B4 42 9C BF 00 20 70 BD 2B 46 6A 68 ...
T5AF8 000:373.811   CPU_WriteMem(1000 bytes @ 0x20000418)
T5AF8 000:377.018 - 3.235ms returns 0x3E8
T5AF8 000:377.031 JLINK_WriteMem(0x20000800, 0x0018 Bytes, ...)
T5AF8 000:377.035   Data:  00 09 01 90 01 98 00 F0 07 01 45 F2 FD 40 C0 F6 ...
T5AF8 000:377.044   CPU_WriteMem(24 bytes @ 0x20000800)
T5AF8 000:377.568 - 0.553ms returns 0x18
T5AF8 000:377.592 JLINK_WriteReg(R0, 0x08000800)
T5AF8 000:377.597 - 0.007ms returns 0x00
T5AF8 000:377.602 JLINK_WriteReg(R1, 0x00000400)
T5AF8 000:377.606 - 0.006ms returns 0x00
T5AF8 000:377.610 JLINK_WriteReg(R2, 0x20000418)
T5AF8 000:377.615 - 0.006ms returns 0x00
T5AF8 000:377.620 JLINK_WriteReg(R3, 0x00000000)
T5AF8 000:377.624 - 0.006ms returns 0x00
T5AF8 000:377.630 JLINK_WriteReg(R4, 0x00000000)
T5AF8 000:377.634 - 0.006ms returns 0x00
T5AF8 000:377.640 JLINK_WriteReg(R5, 0x00000000)
T5AF8 000:377.644 - 0.006ms returns 0x00
T5AF8 000:377.649 JLINK_WriteReg(R6, 0x00000000)
T5AF8 000:377.654 - 0.006ms returns 0x00
T5AF8 000:377.659 JLINK_WriteReg(R7, 0x00000000)
T5AF8 000:377.663 - 0.006ms returns 0x00
T5AF8 000:377.669 JLINK_WriteReg(R8, 0x00000000)
T5AF8 000:377.673 - 0.006ms returns 0x00
T5AF8 000:377.700 JLINK_WriteReg(R9, 0x20000414)
T5AF8 000:377.705 - 0.007ms returns 0x00
T5AF8 000:377.710 JLINK_WriteReg(R10, 0x00000000)
T5AF8 000:377.714 - 0.006ms returns 0x00
T5AF8 000:377.719 JLINK_WriteReg(R11, 0x00000000)
T5AF8 000:377.723 - 0.006ms returns 0x00
T5AF8 000:377.728 JLINK_WriteReg(R12, 0x00000000)
T5AF8 000:377.732 - 0.006ms returns 0x00
T5AF8 000:377.737 JLINK_WriteReg(R13 (SP), 0x20008000)
T5AF8 000:377.741 - 0.006ms returns 0x00
T5AF8 000:377.746 JLINK_WriteReg(R14, 0x20000001)
T5AF8 000:377.750 - 0.006ms returns 0x00
T5AF8 000:377.754 JLINK_WriteReg(R15 (PC), 0x2000029A)
T5AF8 000:377.759 - 0.006ms returns 0x00
T5AF8 000:377.763 JLINK_WriteReg(XPSR, 0x01000000)
T5AF8 000:377.767 - 0.006ms returns 0x00
T5AF8 000:377.772 JLINK_WriteReg(MSP, 0x20008000)
T5AF8 000:377.776 - 0.006ms returns 0x00
T5AF8 000:377.781 JLINK_WriteReg(PSP, 0x20008000)
T5AF8 000:377.785 - 0.006ms returns 0x00
T5AF8 000:377.790 JLINK_WriteReg(CFBP, 0x00000000)
T5AF8 000:377.794 - 0.006ms returns 0x00
T5AF8 000:377.799   JLINK_SetBPEx(Addr = 0x20000000, Type = 0xFFFFFFF2)
T5AF8 000:377.805 - 0.008ms returns 0x0000000A
T5AF8 000:377.810 JLINK_Go()
T5AF8 000:377.817   CPU_ReadMem(4 bytes @ 0xE0001000)
T5AF8 000:380.483 - 2.683ms
T5AF8 000:380.498 JLINK_IsHalted()
T5AF8 000:382.557 - 2.064ms returns TRUE
T5AF8 000:382.566 JLINK_ReadReg(R15 (PC))
T5AF8 000:382.571 - 0.007ms returns 0x20000000
T5AF8 000:382.576 JLINK_ClrBPEx(BPHandle = 0x0000000A)
T5AF8 000:382.580 - 0.006ms returns 0x00
T5AF8 000:382.585 JLINK_ReadReg(R0)
T5AF8 000:382.589 - 0.006ms returns 0x00000000
T5AF8 000:382.935 JLINK_WriteMem(0x20000418, 0x03E8 Bytes, ...)
T5AF8 000:382.943   Data:  01 98 04 28 07 D3 FF E7 02 99 08 68 04 22 62 F3 ...
T5AF8 000:382.952   CPU_WriteMem(1000 bytes @ 0x20000418)
T5AF8 000:386.210 - 3.296ms returns 0x3E8
T5AF8 000:386.235 JLINK_WriteMem(0x20000800, 0x0018 Bytes, ...)
T5AF8 000:386.240   Data:  08 98 80 6D 03 90 08 98 01 68 01 20 10 22 C4 F2 ...
T5AF8 000:386.247   CPU_WriteMem(24 bytes @ 0x20000800)
T5AF8 000:386.707 - 0.485ms returns 0x18
T5AF8 000:386.725 JLINK_WriteReg(R0, 0x08000C00)
T5AF8 000:386.730 - 0.006ms returns 0x00
T5AF8 000:386.735 JLINK_WriteReg(R1, 0x00000400)
T5AF8 000:386.739 - 0.006ms returns 0x00
T5AF8 000:386.744 JLINK_WriteReg(R2, 0x20000418)
T5AF8 000:386.748 - 0.006ms returns 0x00
T5AF8 000:386.752 JLINK_WriteReg(R3, 0x00000000)
T5AF8 000:386.757 - 0.006ms returns 0x00
T5AF8 000:386.761 JLINK_WriteReg(R4, 0x00000000)
T5AF8 000:386.765 - 0.006ms returns 0x00
T5AF8 000:386.770 JLINK_WriteReg(R5, 0x00000000)
T5AF8 000:386.774 - 0.006ms returns 0x00
T5AF8 000:386.779 JLINK_WriteReg(R6, 0x00000000)
T5AF8 000:386.783 - 0.006ms returns 0x00
T5AF8 000:386.787 JLINK_WriteReg(R7, 0x00000000)
T5AF8 000:386.791 - 0.006ms returns 0x00
T5AF8 000:386.796 JLINK_WriteReg(R8, 0x00000000)
T5AF8 000:386.800 - 0.006ms returns 0x00
T5AF8 000:386.807 JLINK_WriteReg(R9, 0x20000414)
T5AF8 000:386.812 - 0.007ms returns 0x00
T5AF8 000:386.817 JLINK_WriteReg(R10, 0x00000000)
T5AF8 000:386.821 - 0.006ms returns 0x00
T5AF8 000:386.825 JLINK_WriteReg(R11, 0x00000000)
T5AF8 000:386.829 - 0.006ms returns 0x00
T5AF8 000:386.834 JLINK_WriteReg(R12, 0x00000000)
T5AF8 000:386.838 - 0.006ms returns 0x00
T5AF8 000:386.843 JLINK_WriteReg(R13 (SP), 0x20008000)
T5AF8 000:386.847 - 0.006ms returns 0x00
T5AF8 000:386.852 JLINK_WriteReg(R14, 0x20000001)
T5AF8 000:386.856 - 0.006ms returns 0x00
T5AF8 000:386.861 JLINK_WriteReg(R15 (PC), 0x2000029A)
T5AF8 000:386.865 - 0.006ms returns 0x00
T5AF8 000:386.870 JLINK_WriteReg(XPSR, 0x01000000)
T5AF8 000:386.874 - 0.006ms returns 0x00
T5AF8 000:386.878 JLINK_WriteReg(MSP, 0x20008000)
T5AF8 000:386.882 - 0.006ms returns 0x00
T5AF8 000:386.887 JLINK_WriteReg(PSP, 0x20008000)
T5AF8 000:386.891 - 0.006ms returns 0x00
T5AF8 000:386.896 JLINK_WriteReg(CFBP, 0x00000000)
T5AF8 000:386.900 - 0.006ms returns 0x00
T5AF8 000:386.905   JLINK_SetBPEx(Addr = 0x20000000, Type = 0xFFFFFFF2)
T5AF8 000:386.911 - 0.008ms returns 0x0000000B
T5AF8 000:386.916 JLINK_Go()
T5AF8 000:386.923   CPU_ReadMem(4 bytes @ 0xE0001000)
T5AF8 000:389.565 - 2.654ms
T5AF8 000:389.574 JLINK_IsHalted()
T5AF8 000:391.529 - 1.958ms returns TRUE
T5AF8 000:391.535 JLINK_ReadReg(R15 (PC))
T5AF8 000:391.540 - 0.006ms returns 0x20000000
T5AF8 000:391.545 JLINK_ClrBPEx(BPHandle = 0x0000000B)
T5AF8 000:391.549 - 0.006ms returns 0x00
T5AF8 000:391.554 JLINK_ReadReg(R0)
T5AF8 000:391.558 - 0.006ms returns 0x00000000
T5AF8 000:391.828 JLINK_WriteMem(0x20000418, 0x03E8 Bytes, ...)
T5AF8 000:391.836   Data:  03 81 FF E7 08 98 01 68 01 20 28 22 C4 F2 02 02 ...
T5AF8 000:391.845   CPU_WriteMem(1000 bytes @ 0x20000418)
T5AF8 000:394.973 - 3.152ms returns 0x3E8
T5AF8 000:394.984 JLINK_WriteMem(0x20000800, 0x0018 Bytes, ...)
T5AF8 000:394.989   Data:  45 F2 08 42 C5 F6 02 02 91 42 00 90 4E D0 FF E7 ...
T5AF8 000:394.997   CPU_WriteMem(24 bytes @ 0x20000800)
T5AF8 000:395.481 - 0.501ms returns 0x18
T5AF8 000:395.490 JLINK_WriteReg(R0, 0x08001000)
T5AF8 000:395.495 - 0.007ms returns 0x00
T5AF8 000:395.500 JLINK_WriteReg(R1, 0x00000400)
T5AF8 000:395.504 - 0.006ms returns 0x00
T5AF8 000:395.509 JLINK_WriteReg(R2, 0x20000418)
T5AF8 000:395.513 - 0.006ms returns 0x00
T5AF8 000:395.517 JLINK_WriteReg(R3, 0x00000000)
T5AF8 000:395.521 - 0.006ms returns 0x00
T5AF8 000:395.526 JLINK_WriteReg(R4, 0x00000000)
T5AF8 000:395.530 - 0.006ms returns 0x00
T5AF8 000:395.535 JLINK_WriteReg(R5, 0x00000000)
T5AF8 000:395.539 - 0.006ms returns 0x00
T5AF8 000:395.543 JLINK_WriteReg(R6, 0x00000000)
T5AF8 000:395.547 - 0.006ms returns 0x00
T5AF8 000:395.552 JLINK_WriteReg(R7, 0x00000000)
T5AF8 000:395.556 - 0.006ms returns 0x00
T5AF8 000:395.561 JLINK_WriteReg(R8, 0x00000000)
T5AF8 000:395.565 - 0.006ms returns 0x00
T5AF8 000:395.569 JLINK_WriteReg(R9, 0x20000414)
T5AF8 000:395.574 - 0.006ms returns 0x00
T5AF8 000:395.578 JLINK_WriteReg(R10, 0x00000000)
T5AF8 000:395.582 - 0.006ms returns 0x00
T5AF8 000:395.587 JLINK_WriteReg(R11, 0x00000000)
T5AF8 000:395.591 - 0.006ms returns 0x00
T5AF8 000:395.596 JLINK_WriteReg(R12, 0x00000000)
T5AF8 000:395.600 - 0.006ms returns 0x00
T5AF8 000:395.604 JLINK_WriteReg(R13 (SP), 0x20008000)
T5AF8 000:395.609 - 0.006ms returns 0x00
T5AF8 000:395.613 JLINK_WriteReg(R14, 0x20000001)
T5AF8 000:395.618 - 0.006ms returns 0x00
T5AF8 000:395.622 JLINK_WriteReg(R15 (PC), 0x2000029A)
T5AF8 000:395.627 - 0.006ms returns 0x00
T5AF8 000:395.631 JLINK_WriteReg(XPSR, 0x01000000)
T5AF8 000:395.635 - 0.006ms returns 0x00
T5AF8 000:395.640 JLINK_WriteReg(MSP, 0x20008000)
T5AF8 000:395.644 - 0.006ms returns 0x00
T5AF8 000:395.649 JLINK_WriteReg(PSP, 0x20008000)
T5AF8 000:395.653 - 0.006ms returns 0x00
T5AF8 000:395.658 JLINK_WriteReg(CFBP, 0x00000000)
T5AF8 000:395.662 - 0.006ms returns 0x00
T5AF8 000:395.667   JLINK_SetBPEx(Addr = 0x20000000, Type = 0xFFFFFFF2)
T5AF8 000:395.673 - 0.008ms returns 0x0000000C
T5AF8 000:395.679 JLINK_Go()
T5AF8 000:395.687   CPU_ReadMem(4 bytes @ 0xE0001000)
T5AF8 000:398.419 - 2.749ms
T5AF8 000:398.432 JLINK_IsHalted()
T5AF8 000:400.349 - 1.923ms returns TRUE
T5AF8 000:400.360 JLINK_ReadReg(R15 (PC))
T5AF8 000:400.365 - 0.007ms returns 0x20000000
T5AF8 000:400.371 JLINK_ClrBPEx(BPHandle = 0x0000000C)
T5AF8 000:400.379 - 0.009ms returns 0x00
T5AF8 000:400.384 JLINK_ReadReg(R0)
T5AF8 000:400.388 - 0.006ms returns 0x00000000
T5AF8 000:400.674 JLINK_WriteMem(0x20000418, 0x03E8 Bytes, ...)
T5AF8 000:400.682   Data:  1C 42 C5 F6 02 02 91 42 00 90 43 D0 FF E7 08 98 ...
T5AF8 000:400.691   CPU_WriteMem(1000 bytes @ 0x20000418)
T5AF8 000:403.884 - 3.214ms returns 0x3E8
T5AF8 000:403.895 JLINK_WriteMem(0x20000800, 0x0018 Bytes, ...)
T5AF8 000:403.899   Data:  FF E7 08 98 01 68 01 20 40 F2 58 42 C4 F2 02 02 ...
T5AF8 000:403.909   CPU_WriteMem(24 bytes @ 0x20000800)
T5AF8 000:404.438 - 0.554ms returns 0x18
T5AF8 000:404.455 JLINK_WriteReg(R0, 0x08001400)
T5AF8 000:404.460 - 0.007ms returns 0x00
T5AF8 000:404.465 JLINK_WriteReg(R1, 0x00000400)
T5AF8 000:404.469 - 0.006ms returns 0x00
T5AF8 000:404.474 JLINK_WriteReg(R2, 0x20000418)
T5AF8 000:404.478 - 0.006ms returns 0x00
T5AF8 000:404.483 JLINK_WriteReg(R3, 0x00000000)
T5AF8 000:404.487 - 0.006ms returns 0x00
T5AF8 000:404.492 JLINK_WriteReg(R4, 0x00000000)
T5AF8 000:404.496 - 0.006ms returns 0x00
T5AF8 000:404.502 JLINK_WriteReg(R5, 0x00000000)
T5AF8 000:404.506 - 0.006ms returns 0x00
T5AF8 000:404.512 JLINK_WriteReg(R6, 0x00000000)
T5AF8 000:404.516 - 0.006ms returns 0x00
T5AF8 000:404.521 JLINK_WriteReg(R7, 0x00000000)
T5AF8 000:404.525 - 0.006ms returns 0x00
T5AF8 000:404.531 JLINK_WriteReg(R8, 0x00000000)
T5AF8 000:404.535 - 0.006ms returns 0x00
T5AF8 000:404.540 JLINK_WriteReg(R9, 0x20000414)
T5AF8 000:404.545 - 0.006ms returns 0x00
T5AF8 000:404.550 JLINK_WriteReg(R10, 0x00000000)
T5AF8 000:404.554 - 0.006ms returns 0x00
T5AF8 000:404.560 JLINK_WriteReg(R11, 0x00000000)
T5AF8 000:404.564 - 0.006ms returns 0x00
T5AF8 000:404.569 JLINK_WriteReg(R12, 0x00000000)
T5AF8 000:404.574 - 0.006ms returns 0x00
T5AF8 000:404.579 JLINK_WriteReg(R13 (SP), 0x20008000)
T5AF8 000:404.583 - 0.006ms returns 0x00
T5AF8 000:404.589 JLINK_WriteReg(R14, 0x20000001)
T5AF8 000:404.593 - 0.006ms returns 0x00
T5AF8 000:404.599 JLINK_WriteReg(R15 (PC), 0x2000029A)
T5AF8 000:404.603 - 0.006ms returns 0x00
T5AF8 000:404.608 JLINK_WriteReg(XPSR, 0x01000000)
T5AF8 000:404.613 - 0.006ms returns 0x00
T5AF8 000:404.618 JLINK_WriteReg(MSP, 0x20008000)
T5AF8 000:404.622 - 0.006ms returns 0x00
T5AF8 000:404.628 JLINK_WriteReg(PSP, 0x20008000)
T5AF8 000:404.632 - 0.006ms returns 0x00
T5AF8 000:404.642 JLINK_WriteReg(CFBP, 0x00000000)
T5AF8 000:404.646 - 0.006ms returns 0x00
T5AF8 000:404.652   JLINK_SetBPEx(Addr = 0x20000000, Type = 0xFFFFFFF2)
T5AF8 000:404.658 - 0.008ms returns 0x0000000D
T5AF8 000:404.664 JLINK_Go()
T5AF8 000:404.671   CPU_ReadMem(4 bytes @ 0xE0001000)
T5AF8 000:407.324 - 2.665ms
T5AF8 000:407.334 JLINK_IsHalted()
T5AF8 000:409.392 - 2.062ms returns TRUE
T5AF8 000:409.401 JLINK_ReadReg(R15 (PC))
T5AF8 000:409.406 - 0.007ms returns 0x20000000
T5AF8 000:409.411 JLINK_ClrBPEx(BPHandle = 0x0000000D)
T5AF8 000:409.415 - 0.006ms returns 0x00
T5AF8 000:409.420 JLINK_ReadReg(R0)
T5AF8 000:409.424 - 0.006ms returns 0x00000000
T5AF8 000:409.689 JLINK_WriteMem(0x20000418, 0x03E8 Bytes, ...)
T5AF8 000:409.697   Data:  FF E7 08 98 01 68 01 20 40 F2 70 42 C4 F2 02 02 ...
T5AF8 000:409.706   CPU_WriteMem(1000 bytes @ 0x20000418)
T5AF8 000:413.010 - 3.350ms returns 0x3E8
T5AF8 000:413.045 JLINK_WriteMem(0x20000800, 0x0018 Bytes, ...)
T5AF8 000:413.050   Data:  01 98 C0 07 60 B1 FF E7 08 98 80 6D 07 90 08 98 ...
T5AF8 000:413.061   CPU_WriteMem(24 bytes @ 0x20000800)
T5AF8 000:413.590 - 0.584ms returns 0x18
T5AF8 000:413.637 JLINK_WriteReg(R0, 0x08001800)
T5AF8 000:413.644 - 0.009ms returns 0x00
T5AF8 000:413.650 JLINK_WriteReg(R1, 0x00000400)
T5AF8 000:413.655 - 0.008ms returns 0x00
T5AF8 000:413.665 JLINK_WriteReg(R2, 0x20000418)
T5AF8 000:413.672 - 0.008ms returns 0x00
T5AF8 000:413.677 JLINK_WriteReg(R3, 0x00000000)
T5AF8 000:413.682 - 0.007ms returns 0x00
T5AF8 000:413.687 JLINK_WriteReg(R4, 0x00000000)
T5AF8 000:413.692 - 0.007ms returns 0x00
T5AF8 000:413.697 JLINK_WriteReg(R5, 0x00000000)
T5AF8 000:413.702 - 0.007ms returns 0x00
T5AF8 000:413.707 JLINK_WriteReg(R6, 0x00000000)
T5AF8 000:413.712 - 0.007ms returns 0x00
T5AF8 000:413.718 JLINK_WriteReg(R7, 0x00000000)
T5AF8 000:413.722 - 0.007ms returns 0x00
T5AF8 000:413.728 JLINK_WriteReg(R8, 0x00000000)
T5AF8 000:413.733 - 0.007ms returns 0x00
T5AF8 000:413.738 JLINK_WriteReg(R9, 0x20000414)
T5AF8 000:413.743 - 0.007ms returns 0x00
T5AF8 000:413.748 JLINK_WriteReg(R10, 0x00000000)
T5AF8 000:413.753 - 0.007ms returns 0x00
T5AF8 000:413.758 JLINK_WriteReg(R11, 0x00000000)
T5AF8 000:413.763 - 0.007ms returns 0x00
T5AF8 000:413.768 JLINK_WriteReg(R12, 0x00000000)
T5AF8 000:413.773 - 0.007ms returns 0x00
T5AF8 000:413.778 JLINK_WriteReg(R13 (SP), 0x20008000)
T5AF8 000:413.784 - 0.007ms returns 0x00
T5AF8 000:413.789 JLINK_WriteReg(R14, 0x20000001)
T5AF8 000:413.794 - 0.007ms returns 0x00
T5AF8 000:413.799 JLINK_WriteReg(R15 (PC), 0x2000029A)
T5AF8 000:413.804 - 0.007ms returns 0x00
T5AF8 000:413.809 JLINK_WriteReg(XPSR, 0x01000000)
T5AF8 000:413.814 - 0.007ms returns 0x00
T5AF8 000:413.819 JLINK_WriteReg(MSP, 0x20008000)
T5AF8 000:413.824 - 0.007ms returns 0x00
T5AF8 000:413.830 JLINK_WriteReg(PSP, 0x20008000)
T5AF8 000:413.834 - 0.007ms returns 0x00
T5AF8 000:413.840 JLINK_WriteReg(CFBP, 0x00000000)
T5AF8 000:413.844 - 0.007ms returns 0x00
T5AF8 000:413.850   JLINK_SetBPEx(Addr = 0x20000000, Type = 0xFFFFFFF2)
T5AF8 000:413.857 - 0.009ms returns 0x0000000E
T5AF8 000:413.863 JLINK_Go()
